T4C44 020:094 SEGGER J-Link V6.32i Log File (0003ms, 1021ms total)
T4C44 020:094 DLL Compiled: Jul 24 2018 15:19:55 (0003ms, 1021ms total)
T4C44 020:094 Logging started @ 2019-03-05 00:17 (0003ms, 1021ms total)
T4C44 020:097 JLINK_SetWarnOutHandler(...) (0000ms, 1021ms total)
T4C44 020:097 JLINK_OpenEx(...)
Firmware: J-Link V9 compiled Oct 25 2018 11:46:07
Hardware: V9.20
S/N: 13210006
Feature(s): GDB, RDI, FlashBP, FlashDL, JFlash, RDDI
TELNET listener socket opened on port 19021WEBSRV 
Starting webserver (0027ms, 1048ms total)
T4C44 020:097 WEBSRV Webserver running on local port 19080 (0027ms, 1048ms total)
T4C44 020:097   returns O.K. (0027ms, 1048ms total)
T4C44 020:124 JLINK_GetEmuCaps()  returns 0xB9FF7BBF (0001ms, 1049ms total)
T4C44 020:125 JLINK_TIF_GetAvailable(...) (0001ms, 1050ms total)
T4C44 020:126 JLINK_SetErrorOutHandler(...) (0000ms, 1050ms total)
T4C44 020:126 JLINK_ExecCommand("ProjectFile = "E:\competition\RM\my_projects\Big_Pinwheel\MDK-ARM\JLinkSettings.ini"", ...).   returns 0x00 (0009ms, 1059ms total)
T4C44 020:135 JLINK_ExecCommand("Device = STM32F405RGTx", ...). Device "STM32F405RG" selected.  returns 0x00 (0004ms, 1063ms total)
T4C44 020:139 JLINK_ExecCommand("DisableConnectionTimeout", ...).   returns 0x01 (0000ms, 1063ms total)
T4C44 020:139 JLINK_GetHardwareVersion()  returns 0x16760 (0000ms, 1063ms total)
T4C44 020:139 JLINK_GetDLLVersion()  returns 63209 (0000ms, 1063ms total)
T4C44 020:139 JLINK_GetFirmwareString(...) (0000ms, 1063ms total)
T4C44 020:139 JLINK_GetDLLVersion()  returns 63209 (0001ms, 1064ms total)
T4C44 020:140 JLINK_GetCompileDateTime() (0000ms, 1064ms total)
T4C44 020:140 JLINK_GetFirmwareString(...) (0000ms, 1064ms total)
T4C44 020:140 JLINK_GetHardwareVersion()  returns 0x16760 (0000ms, 1064ms total)
T4C44 020:140 JLINK_TIF_Select(JLINKARM_TIF_SWD)  returns 0x00 (0003ms, 1067ms total)
T4C44 020:143 JLINK_SetSpeed(10000) (0000ms, 1067ms total)
T4C44 020:143 JLINK_GetId() >0x10B TIF>Found SW-DP with ID 0x2BA01477 >0x0D TIF> >0x28 TIF> >0x0D TIF> >0x28 TIF> >0x0D TIF> >0x28 TIF> >0x0D TIF> >0x28 TIF> >0x0D TIF> >0x21 TIF> >0x0D TIF> >0x28 TIF> >0x0D TIF> >0x28 TIF> >0x0D TIF> >0x28 TIF> >0x0D TIF> >0x21 TIF> >0x0D TIF> >0x21 TIF> >0x0D TIF> >0x28 TIF> >0x0D TIF> >0x21 TIF> >0x0D TIF> >0x21 TIF> >0x0D TIF> >0x28 TIF> >0x0D TIF> >0x21 TIF> >0x0D TIF> >0x21 TIF> >0x0D TIF> >0x28 TIF> >0x0D TIF> >0x21 TIF> >0x0D TIF> >0x21 TIF> >0x0D TIF> >0x28 TIF>
 >0x0D TIF> >0x21 TIF> >0x0D TIF> >0x21 TIF> >0x0D TIF> >0x28 TIF> >0x0D TIF> >0x21 TIF> >0x0D TIF> >0x21 TIF> >0x10B TIF>Found SW-DP with ID 0x2BA01477 >0x0D TIF> >0x28 TIF> >0x0D TIF> >0x28 TIF> >0x0D TIF> >0x28 TIF> >0x0D TIF> >0x28 TIF> >0x0D TIF> >0x21 TIF> >0x0D TIF> >0x28 TIF>Scanning AP map to find all available APs >0x0D TIF> >0x28 TIF> >0x0D TIF> >0x21 TIF> >0x0D TIF> >0x21 TIF> >0x0D TIF> >0x28 TIF> >0x0D TIF> >0x21 TIF> >0x0D TIF> >0x21 TIF>
AP[1]: Stopped AP scan as end of AP map has been reachedAP[0]: AHB-AP (IDR: 0x24770011)Iterating through AP map to find AHB-AP to use >0x42 TIF> >0x28 TIF> >0x0D TIF> >0x28 TIF> >0x0D TIF> >0x21 TIF> >0x0D TIF> >0x21 TIF> >0x42 TIF> >0x28 TIF> >0x0D TIF> >0x28 TIF> >0x0D TIF> >0x28 TIF> >0x0D TIF> >0x21 TIF> >0x0D TIF> >0x21 TIF>AP[0]: Core foundAP[0]: AHB-AP ROM base: 0xE00FF000 >0x0D TIF> >0x28 TIF> >0x0D TIF> >0x28 TIF> >0x0D TIF> >0x28 TIF> >0x0D TIF> >0x21 TIF> >0x0D TIF> >0x21 TIF>
CPUID register: 0x410FC241. Implementer code: 0x41 (ARM)Found Cortex-M4 r0p1, Little endian. -- Max. mem block: 0x00010DF8 -- CPU_ReadMem(4 bytes @ 0xE000EDF0) -- CPU_ReadMem(4 bytes @ 0xE0002000)FPUnit: 6 code (BP) slots and 2 literal slots -- CPU_ReadMem(4 bytes @ 0xE000EDFC) -- CPU_ReadMem(4 bytes @ 0xE0001000) -- CPU_WriteMem(4 bytes @ 0xE0001000) -- CPU_ReadMem(4 bytes @ 0xE000ED88) -- CPU_WriteMem(4 bytes @ 0xE000ED88) -- CPU_ReadMem(4 bytes @ 0xE000ED88) -- CPU_WriteMem(4 bytes @ 0xE000ED88)
CoreSight components:ROMTbl[0] @ E00FF000 -- CPU_ReadMem(16 bytes @ 0xE00FF000) -- CPU_ReadMem(16 bytes @ 0xE000EFF0) -- CPU_ReadMem(16 bytes @ 0xE000EFE0)ROMTbl[0][0]: E000E000, CID: B105E00D, PID: 000BB00C SCS-M7 -- CPU_ReadMem(16 bytes @ 0xE0001FF0) -- CPU_ReadMem(16 bytes @ 0xE0001FE0)ROMTbl[0][1]: E0001000, CID: B105E00D, PID: 003BB002 DWT -- CPU_ReadMem(16 bytes @ 0xE0002FF0) -- CPU_ReadMem(16 bytes @ 0xE0002FE0)ROMTbl[0][2]: E0002000, CID: B105E00D, PID: 002BB003 FPB
 -- CPU_ReadMem(16 bytes @ 0xE0000FF0) -- CPU_ReadMem(16 bytes @ 0xE0000FE0)ROMTbl[0][3]: E0000000, CID: B105E00D, PID: 003BB001 ITM -- CPU_ReadMem(16 bytes @ 0xE00FF010) -- CPU_ReadMem(16 bytes @ 0xE0040FF0) -- CPU_ReadMem(16 bytes @ 0xE0040FE0)ROMTbl[0][4]: E0040000, CID: B105900D, PID: 000BB9A1 TPIU -- CPU_ReadMem(16 bytes @ 0xE0041FF0) -- CPU_ReadMem(16 bytes @ 0xE0041FE0)ROMTbl[0][5]: E0041000, CID: B105900D, PID: 000BB925 ETM >0x0D TIF> >0x21 TIF>  returns 0x2BA01477 (0211ms, 1278ms total)
T4C44 020:354 JLINK_GetDLLVersion()  returns 63209 (0000ms, 1278ms total)
T4C44 020:354 JLINK_CORE_GetFound()  returns 0xE0000FF (0000ms, 1278ms total)
T4C44 020:354 JLINK_GetDebugInfo(0x100 = JLINKARM_ROM_TABLE_ADDR_INDEX) -- Value=0xE00FF000  returns 0x00 (0000ms, 1278ms total)
T4C44 020:354 JLINK_GetDebugInfo(0x100 = JLINKARM_ROM_TABLE_ADDR_INDEX) -- Value=0xE00FF000  returns 0x00 (0000ms, 1278ms total)
T4C44 020:354 JLINK_GetDebugInfo(0x101 = JLINKARM_DEBUG_INFO_ETM_ADDR_INDEX) -- Value=0xE0041000  returns 0x00 (0000ms, 1278ms total)
T4C44 020:354 JLINK_ReadMemEx(0xE0041FD0, 0x0020 Bytes, ..., Flags = 0x02000004) -- CPU_ReadMem(32 bytes @ 0xE0041FD0) - Data: 04 00 00 00 00 00 00 00 00 00 00 00 00 00 00 00 ...  returns 0x20 (0001ms, 1279ms total)
T4C44 020:355 JLINK_GetDebugInfo(0x102 = JLINKARM_DEBUG_INFO_MTB_ADDR_INDEX) -- Value=0x00000000  returns 0x00 (0000ms, 1279ms total)
T4C44 020:355 JLINK_GetDebugInfo(0x103 = JLINKARM_DEBUG_INFO_TPIU_ADDR_INDEX) -- Value=0xE0040000  returns 0x00 (0000ms, 1279ms total)
T4C44 020:355 JLINK_GetDebugInfo(0x104 = JLINKARM_DEBUG_INFO_ITM_ADDR_INDEX) -- Value=0xE0000000  returns 0x00 (0001ms, 1280ms total)
T4C44 020:356 JLINK_GetDebugInfo(0x105 = JLINKARM_DEBUG_INFO_DWT_ADDR_INDEX) -- Value=0xE0001000  returns 0x00 (0000ms, 1280ms total)
T4C44 020:356 JLINK_GetDebugInfo(0x106 = JLINKARM_DEBUG_INFO_FPB_ADDR_INDEX) -- Value=0xE0002000  returns 0x00 (0000ms, 1280ms total)
T4C44 020:356 JLINK_GetDebugInfo(0x107 = JLINKARM_DEBUG_INFO_NVIC_ADDR_INDEX) -- Value=0xE000E000  returns 0x00 (0000ms, 1280ms total)
T4C44 020:356 JLINK_GetDebugInfo(0x10C = JLINKARM_DEBUG_INFO_DBG_ADDR_INDEX) -- Value=0xE000EDF0  returns 0x00 (0000ms, 1280ms total)
T4C44 020:356 JLINK_GetDebugInfo(0x01 = Unknown) -- Value=0x00000001  returns 0x00 (0000ms, 1280ms total)
T4C44 020:356 JLINK_ReadMemU32(0xE000ED00, 0x0001 Items, ...) -- CPU_ReadMem(4 bytes @ 0xE000ED00) - Data: 41 C2 0F 41  returns 0x01 (0000ms, 1280ms total)
T4C44 020:356 JLINK_GetDebugInfo(0x10F = JLINKARM_DEBUG_INFO_HAS_CORTEX_M_SECURITY_EXT_INDEX) -- Value=0x00000000  returns 0x00 (0000ms, 1280ms total)
T4C44 020:356 JLINK_SetResetType(JLINKARM_CM3_RESET_TYPE_NORMAL)  returns JLINKARM_CM3_RESET_TYPE_NORMAL (0000ms, 1280ms total)
T4C44 020:357 JLINK_Reset() -- CPU is running -- CPU_WriteMem(4 bytes @ 0xE000EDF0) -- CPU is running -- CPU_WriteMem(4 bytes @ 0xE000EDFC)Reset: Halt core after reset via DEMCR.VC_CORERESET. >0x35 TIF>Reset: Reset device via AIRCR.SYSRESETREQ. -- CPU is running -- CPU_WriteMem(4 bytes @ 0xE000ED0C) >0x0D TIF> >0x28 TIF> -- CPU_ReadMem(4 bytes @ 0xE000EDF0) -- CPU_ReadMem(4 bytes @ 0xE000EDF0) -- CPU is running -- CPU_WriteMem(4 bytes @ 0xE000EDF0) -- CPU is running -- CPU_WriteMem(4 bytes @ 0xE000EDFC)
 -- CPU_ReadMem(4 bytes @ 0xE000EDF0) -- CPU_WriteMem(4 bytes @ 0xE0002000) -- CPU_ReadMem(4 bytes @ 0xE000EDFC) -- CPU_ReadMem(4 bytes @ 0xE0001000) (0074ms, 1354ms total)
T4C44 020:431 JLINK_ReadReg(R15 (PC))  returns 0x08000330 (0000ms, 1354ms total)
T4C44 020:431 JLINK_ReadReg(XPSR)  returns 0x01000000 (0000ms, 1354ms total)
T4C44 020:431 JLINK_Halt()  returns 0x00 (0000ms, 1354ms total)
T4C44 020:431 JLINK_ReadMemU32(0xE000EDF0, 0x0001 Items, ...) -- CPU_ReadMem(4 bytes @ 0xE000EDF0) - Data: 03 00 03 00  returns 0x01 (0001ms, 1355ms total)
T4C44 020:432 JLINK_WriteU32(0xE000EDF0, 0xA05F0003) -- CPU_WriteMem(4 bytes @ 0xE000EDF0)  returns 0x00 (0002ms, 1357ms total)
T4C44 020:434 JLINK_WriteU32(0xE000EDFC, 0x01000000) -- CPU_WriteMem(4 bytes @ 0xE000EDFC)  returns 0x00 (0000ms, 1357ms total)
T4C44 020:434 JLINK_GetHWStatus(...)  returns 0x00 (0001ms, 1358ms total)
T4C44 020:435 JLINK_GetNumBPUnits(Type = 0xFFFFFF00)  returns 0x06 (0000ms, 1358ms total)
T4C44 020:435 JLINK_GetNumBPUnits(Type = 0xF0)  returns 0x2000 (0000ms, 1358ms total)
T4C44 020:435 JLINK_GetNumWPUnits()  returns 0x04 (0000ms, 1358ms total)
T4C44 020:435 JLINK_GetSpeed()  returns 0x1770 (0000ms, 1358ms total)
T4C44 020:435 JLINK_ReadMemU32(0xE000E004, 0x0001 Items, ...) -- CPU_ReadMem(4 bytes @ 0xE000E004) - Data: 02 00 00 00  returns 0x01 (0001ms, 1359ms total)
T4C44 020:436 JLINK_ReadMemU32(0xE000E004, 0x0001 Items, ...) -- CPU_ReadMem(4 bytes @ 0xE000E004) - Data: 02 00 00 00  returns 0x01 (0000ms, 1359ms total)
T4C44 020:436 JLINK_WriteMemEx(0xE0001000, 0x001C Bytes, ..., Flags = 0x02000004) - Data: 01 00 00 00 00 00 00 00 00 00 00 00 00 00 00 00 ... -- CPU_WriteMem(28 bytes @ 0xE0001000)  returns 0x1C (0002ms, 1361ms total)
T4C44 020:438 JLINK_ReadReg(R15 (PC))  returns 0x08000330 (0000ms, 1361ms total)
T4C44 020:438 JLINK_ReadReg(XPSR)  returns 0x01000000 (0000ms, 1361ms total)
T4C44 020:453 JLINK_ReadMemEx(0xE0001004, 0x0004 Bytes, ..., Flags = 0x02000000) - Data: 00 00 00 00  returns 0x04 (0000ms, 1361ms total)
T4C44 021:785 JLINK_SetResetType(JLINKARM_CM3_RESET_TYPE_NORMAL)  returns JLINKARM_CM3_RESET_TYPE_NORMAL (0000ms, 1361ms total)
T4C44 021:785 JLINK_Reset() -- CPU_WriteMem(4 bytes @ 0xE000EDF0) -- CPU_WriteMem(4 bytes @ 0xE000EDFC)Reset: Halt core after reset via DEMCR.VC_CORERESET. >0x35 TIF>Reset: Reset device via AIRCR.SYSRESETREQ. -- CPU_WriteMem(4 bytes @ 0xE000ED0C) >0x0D TIF> >0x28 TIF> -- CPU_ReadMem(4 bytes @ 0xE000EDF0) -- CPU_ReadMem(4 bytes @ 0xE000EDF0) -- CPU_WriteMem(4 bytes @ 0xE000EDF0) -- CPU_WriteMem(4 bytes @ 0xE000EDFC) -- CPU_ReadMem(4 bytes @ 0xE000EDF0) -- CPU_WriteMem(4 bytes @ 0xE0002000)
 -- CPU_ReadMem(4 bytes @ 0xE000EDFC) -- CPU_ReadMem(4 bytes @ 0xE0001000) (0073ms, 1434ms total)
T4C44 021:858 JLINK_ReadReg(R15 (PC))  returns 0x08000330 (0000ms, 1434ms total)
T4C44 021:858 JLINK_ReadReg(XPSR)  returns 0x01000000 (0000ms, 1434ms total)
T4C44 021:859 JLINK_ReadMemEx(0x08000230, 0x003C Bytes, ..., Flags = 0x02000000) -- CPU_ReadMem(128 bytes @ 0x08000200) -- Updating C cache (128 bytes @ 0x08000200) -- Read from C cache (60 bytes @ 0x08000230) - Data: 10 3A 28 BF 78 C1 FB D8 52 07 28 BF 30 C1 48 BF ...  returns 0x3C (0001ms, 1435ms total)
T4C44 021:860 JLINK_ReadMemEx(0x0800026C, 0x003C Bytes, ..., Flags = 0x02000000) -- CPU_ReadMem(64 bytes @ 0x08000280) -- Updating C cache (64 bytes @ 0x08000280) -- Read from C cache (60 bytes @ 0x0800026C) - Data: 03 BC 00 F0 AB F9 00 00 2B 4B 19 68 08 68 B0 E8 ...  returns 0x3C (0002ms, 1437ms total)
T4C44 021:862 JLINK_ReadMemEx(0x080002A8, 0x003C Bytes, ..., Flags = 0x02000000) -- CPU_ReadMem(64 bytes @ 0x080002C0) -- Updating C cache (64 bytes @ 0x080002C0) -- Read from C cache (60 bytes @ 0x080002A8) - Data: 6F 8F 00 DF 00 BF 00 BF 08 ED 00 E0 DF F8 0C 00 ...  returns 0x3C (0001ms, 1438ms total)
T4C44 021:863 JLINK_ReadMemEx(0x080002E4, 0x003C Bytes, ..., Flags = 0x02000000) -- CPU_ReadMem(64 bytes @ 0x08000300) -- Updating C cache (64 bytes @ 0x08000300) -- Read from C cache (60 bytes @ 0x080002E4) - Data: 08 B4 4F F0 50 00 80 F3 11 88 BF F3 4F 8F BF F3 ...  returns 0x3C (0001ms, 1439ms total)
T4C44 021:864 JLINK_ReadMemEx(0x08000320, 0x003C Bytes, ..., Flags = 0x02000000) -- CPU_ReadMem(64 bytes @ 0x08000340) -- Updating C cache (64 bytes @ 0x08000340) -- Read from C cache (60 bytes @ 0x08000320) - Data: 00 BF 00 BF 44 00 00 20 EF F3 05 80 70 47 00 00 ...  returns 0x3C (0001ms, 1440ms total)
T4F10 025:411 JLINK_ReadMemEx(0x08000330, 0x0002 Bytes, ..., Flags = 0x02000000) -- Read from C cache (2 bytes @ 0x08000330) - Data: 09 48  returns 0x02 (0000ms, 1440ms total)
T4F10 025:411 JLINK_SetBPEx(Addr = 0x080044BC, Type = 0xFFFFFFF2)  returns 0x00000001 (0000ms, 1440ms total)
T4F10 025:411 JLINK_Go() -- CPU_WriteMem(4 bytes @ 0xE0002000) -- CPU_ReadMem(4 bytes @ 0xE0001000) -- CPU_WriteMem(4 bytes @ 0xE0002008) -- CPU_WriteMem(4 bytes @ 0xE000200C) -- CPU_WriteMem(4 bytes @ 0xE0002010) -- CPU_WriteMem(4 bytes @ 0xE0002014) -- CPU_WriteMem(4 bytes @ 0xE0002018) -- CPU_WriteMem(4 bytes @ 0xE000201C) -- CPU_WriteMem(4 bytes @ 0xE0001004) (0006ms, 1446ms total)
T4F10 025:519 JLINK_IsHalted()  returns TRUE (0003ms, 1449ms total)
T4F10 025:522 JLINK_Halt()  returns 0x00 (0000ms, 1446ms total)
T4F10 025:522 JLINK_IsHalted()  returns TRUE (0000ms, 1446ms total)
T4F10 025:522 JLINK_IsHalted()  returns TRUE (0000ms, 1446ms total)
T4F10 025:522 JLINK_IsHalted()  returns TRUE (0000ms, 1446ms total)
T4F10 025:522 JLINK_ReadReg(R15 (PC))  returns 0x080044BC (0000ms, 1446ms total)
T4F10 025:522 JLINK_ReadReg(XPSR)  returns 0x61000000 (0000ms, 1446ms total)
T4F10 025:522 JLINK_ClrBPEx(BPHandle = 0x00000001)  returns 0x00 (0000ms, 1446ms total)
T4F10 025:522 JLINK_ReadMemU32(0xE000ED30, 0x0001 Items, ...) -- CPU_ReadMem(4 bytes @ 0xE000ED30) - Data: 02 00 00 00  returns 0x01 (0001ms, 1447ms total)
T4F10 025:523 JLINK_ReadMemU32(0xE0001028, 0x0001 Items, ...) -- CPU_ReadMem(4 bytes @ 0xE0001028) - Data: 00 00 00 00  returns 0x01 (0001ms, 1448ms total)
T4F10 025:524 JLINK_ReadMemU32(0xE0001038, 0x0001 Items, ...) -- CPU_ReadMem(4 bytes @ 0xE0001038) - Data: 00 02 00 00  returns 0x01 (0002ms, 1450ms total)
T4F10 025:526 JLINK_ReadMemU32(0xE0001048, 0x0001 Items, ...) -- CPU_ReadMem(4 bytes @ 0xE0001048) - Data: 00 00 00 00  returns 0x01 (0001ms, 1451ms total)
T4F10 025:527 JLINK_ReadMemU32(0xE0001058, 0x0001 Items, ...) -- CPU_ReadMem(4 bytes @ 0xE0001058) - Data: 00 00 00 00  returns 0x01 (0001ms, 1452ms total)
T4F10 025:528 JLINK_ReadReg(R0)  returns 0x200058D0 (0000ms, 1452ms total)
T4F10 025:528 JLINK_ReadReg(R1)  returns 0x20005AD0 (0000ms, 1452ms total)
T4F10 025:528 JLINK_ReadReg(R2)  returns 0x20005AD0 (0000ms, 1452ms total)
T4F10 025:528 JLINK_ReadReg(R3)  returns 0x20005AD0 (0000ms, 1452ms total)
T4F10 025:528 JLINK_ReadReg(R4)  returns 0x00000000 (0000ms, 1452ms total)
T4F10 025:528 JLINK_ReadReg(R5)  returns 0x20005870 (0000ms, 1452ms total)
T4F10 025:528 JLINK_ReadReg(R6)  returns 0x00000000 (0000ms, 1452ms total)
T4F10 025:528 JLINK_ReadReg(R7)  returns 0x00000000 (0000ms, 1452ms total)
T4F10 025:528 JLINK_ReadReg(R8)  returns 0x00000000 (0000ms, 1452ms total)
T4F10 025:528 JLINK_ReadReg(R9)  returns 0x00000000 (0000ms, 1452ms total)
T4F10 025:528 JLINK_ReadReg(R10)  returns 0x08005D3C (0001ms, 1453ms total)
T4F10 025:529 JLINK_ReadReg(R11)  returns 0x00000000 (0000ms, 1453ms total)
T4F10 025:529 JLINK_ReadReg(R12)  returns 0x200058B0 (0000ms, 1453ms total)
T4F10 025:529 JLINK_ReadReg(R13 (SP))  returns 0x20005ED0 (0000ms, 1453ms total)
T4F10 025:529 JLINK_ReadReg(R14)  returns 0x08000263 (0000ms, 1453ms total)
T4F10 025:529 JLINK_ReadReg(R15 (PC))  returns 0x080044BC (0000ms, 1453ms total)
T4F10 025:529 JLINK_ReadReg(XPSR)  returns 0x61000000 (0000ms, 1453ms total)
T4F10 025:529 JLINK_ReadReg(MSP)  returns 0x20005ED0 (0000ms, 1453ms total)
T4F10 025:529 JLINK_ReadReg(PSP)  returns 0x00000000 (0000ms, 1453ms total)
T4F10 025:529 JLINK_ReadReg(CFBP)  returns 0x04000000 (0000ms, 1453ms total)
T4F10 025:529 JLINK_ReadReg(FPSCR)  returns 0x03000000 (0005ms, 1458ms total)
T4F10 025:534 JLINK_ReadReg(FPS0)  returns 0xD1BA43B7 (0000ms, 1458ms total)
T4F10 025:534 JLINK_ReadReg(FPS1)  returns 0x3A83126F (0000ms, 1458ms total)
T4F10 025:534 JLINK_ReadReg(FPS2)  returns 0x00000000 (0000ms, 1458ms total)
T4F10 025:534 JLINK_ReadReg(FPS3)  returns 0x447A0000 (0000ms, 1458ms total)
T4F10 025:534 JLINK_ReadReg(FPS4)  returns 0x469C4000 (0000ms, 1458ms total)
T4F10 025:534 JLINK_ReadReg(FPS5)  returns 0x00000000 (0000ms, 1458ms total)
T4F10 025:534 JLINK_ReadReg(FPS6)  returns 0x00000000 (0000ms, 1458ms total)
T4F10 025:534 JLINK_ReadReg(FPS7)  returns 0x00000000 (0000ms, 1458ms total)
T4F10 025:534 JLINK_ReadReg(FPS8)  returns 0x00000000 (0000ms, 1458ms total)
T4F10 025:534 JLINK_ReadReg(FPS9)  returns 0x00000000 (0000ms, 1458ms total)
T4F10 025:534 JLINK_ReadReg(FPS10)  returns 0x00000000 (0000ms, 1458ms total)
T4F10 025:534 JLINK_ReadReg(FPS11)  returns 0x00000000 (0000ms, 1458ms total)
T4F10 025:534 JLINK_ReadReg(FPS12)  returns 0x00000000 (0000ms, 1458ms total)
T4F10 025:534 JLINK_ReadReg(FPS13)  returns 0x00000000 (0000ms, 1458ms total)
T4F10 025:534 JLINK_ReadReg(FPS14)  returns 0x00000000 (0000ms, 1458ms total)
T4F10 025:534 JLINK_ReadReg(FPS15)  returns 0x00000000 (0000ms, 1458ms total)
T4F10 025:534 JLINK_ReadReg(FPS16)  returns 0x00000000 (0000ms, 1458ms total)
T4F10 025:534 JLINK_ReadReg(FPS17)  returns 0x00000000 (0000ms, 1458ms total)
T4F10 025:534 JLINK_ReadReg(FPS18)  returns 0x00000000 (0000ms, 1458ms total)
T4F10 025:534 JLINK_ReadReg(FPS19)  returns 0x00000000 (0001ms, 1459ms total)
T4F10 025:535 JLINK_ReadReg(FPS20)  returns 0x00000000 (0000ms, 1459ms total)
T4F10 025:535 JLINK_ReadReg(FPS21)  returns 0x00000000 (0000ms, 1459ms total)
T4F10 025:535 JLINK_ReadReg(FPS22)  returns 0x00000000 (0000ms, 1459ms total)
T4F10 025:535 JLINK_ReadReg(FPS23)  returns 0x00000000 (0000ms, 1459ms total)
T4F10 025:535 JLINK_ReadReg(FPS24)  returns 0x00000000 (0000ms, 1459ms total)
T4F10 025:535 JLINK_ReadReg(FPS25)  returns 0x00000000 (0000ms, 1459ms total)
T4F10 025:535 JLINK_ReadReg(FPS26)  returns 0x00000000 (0000ms, 1459ms total)
T4F10 025:535 JLINK_ReadReg(FPS27)  returns 0x00000000 (0000ms, 1459ms total)
T4F10 025:535 JLINK_ReadReg(FPS28)  returns 0x00000000 (0000ms, 1459ms total)
T4F10 025:535 JLINK_ReadReg(FPS29)  returns 0x00000000 (0000ms, 1459ms total)
T4F10 025:535 JLINK_ReadReg(FPS30)  returns 0x00000000 (0000ms, 1459ms total)
T4F10 025:535 JLINK_ReadReg(FPS31)  returns 0x00000000 (0000ms, 1459ms total)
T4C44 025:554 JLINK_ReadMemEx(0x080043BC, 0x003C Bytes, ..., Flags = 0x02000000) -- CPU_ReadMem(128 bytes @ 0x08004380) -- Updating C cache (128 bytes @ 0x08004380) -- Read from C cache (60 bytes @ 0x080043BC) - Data: 00 F0 7C FF 60 61 BD EC 0E 8B 70 BD 00 00 B4 43 ...  returns 0x3C (0002ms, 1461ms total)
T4C44 025:556 JLINK_ReadMemEx(0x080043F8, 0x0008 Bytes, ..., Flags = 0x02000000) -- Read from C cache (8 bytes @ 0x080043F8) - Data: 0F 72 00 21 9F ED 22 2A  returns 0x08 (0000ms, 1461ms total)
T4C44 025:556 JLINK_ReadMemEx(0x08004400, 0x0034 Bytes, ..., Flags = 0x02000000) -- CPU_ReadMem(64 bytes @ 0x08004400) -- Updating C cache (64 bytes @ 0x08004400) -- Read from C cache (52 bytes @ 0x08004400) - Data: DF ED 22 1A B7 EE 00 1A DF ED 21 0A B2 EE 0E 0A ...  returns 0x34 (0002ms, 1463ms total)
T4C44 025:558 JLINK_ReadMemEx(0x08004434, 0x003C Bytes, ..., Flags = 0x02000000) -- CPU_ReadMem(64 bytes @ 0x08004440) -- Updating C cache (64 bytes @ 0x08004440) -- Read from C cache (60 bytes @ 0x08004434) - Data: 75 F8 1D 4C 01 25 40 F2 07 26 11 4F DF F8 50 80 ...  returns 0x3C (0002ms, 1465ms total)
T4C44 025:560 JLINK_ReadMemEx(0x08004470, 0x003C Bytes, ..., Flags = 0x02000000) -- CPU_ReadMem(64 bytes @ 0x08004480) -- Updating C cache (64 bytes @ 0x08004480) -- Read from C cache (60 bytes @ 0x08004470) - Data: 9F ED 11 0A 84 ED 14 0A 84 F8 54 00 00 BF BD E8 ...  returns 0x3C (0002ms, 1467ms total)
T4C44 025:562 JLINK_ReadMemEx(0x080044B8, 0x003C Bytes, ..., Flags = 0x02000000) -- CPU_ReadMem(64 bytes @ 0x080044C0) -- Updating C cache (64 bytes @ 0x080044C0) -- Read from C cache (60 bytes @ 0x080044B8) - Data: B7 43 BA D1 FC F7 F8 FE FE F7 D6 FD FE F7 F6 F8 ...  returns 0x3C (0002ms, 1469ms total)
T4F10 028:535 JLINK_ReadMemEx(0x080044BC, 0x0002 Bytes, ..., Flags = 0x02000000) -- Read from C cache (2 bytes @ 0x080044BC) - Data: FC F7  returns 0x02 (0000ms, 1469ms total)
T4F10 028:535 JLINK_Go() -- CPU_ReadMem(4 bytes @ 0xE0001000) -- CPU_WriteMem(4 bytes @ 0xE0002008) (0003ms, 1472ms total)
T4F10 028:639 JLINK_IsHalted()  returns FALSE (0001ms, 1473ms total)
T4F10 028:741 JLINK_IsHalted()  returns FALSE (0000ms, 1472ms total)
T4F10 028:842 JLINK_IsHalted()  returns FALSE (0001ms, 1473ms total)
T4F10 028:944 JLINK_IsHalted()  returns FALSE (0001ms, 1473ms total)
T4F10 029:046 JLINK_IsHalted()  returns FALSE (0001ms, 1473ms total)
T4F10 029:147 JLINK_ReadMemU32(0xE0001004, 0x0001 Items, ...) -- CPU_ReadMem(4 bytes @ 0xE0001004) - Data: 0B 6E 1C 06  returns 0x01 (0001ms, 1473ms total)
T4F10 029:150 JLINK_IsHalted()  returns FALSE (0001ms, 1474ms total)
T4F10 029:253 JLINK_IsHalted()  returns FALSE (0001ms, 1474ms total)
T4F10 029:355 JLINK_IsHalted()  returns FALSE (0001ms, 1474ms total)
T4F10 029:457 JLINK_IsHalted()  returns FALSE (0001ms, 1474ms total)
T4F10 029:558 JLINK_IsHalted()  returns FALSE (0001ms, 1474ms total)
T4F10 029:660 JLINK_IsHalted()  returns FALSE (0001ms, 1474ms total)
T4F10 029:762 JLINK_ReadMemU32(0xE0001004, 0x0001 Items, ...) - Data: 0B 6E 1C 06  returns 0x01 (0000ms, 1473ms total)
T4F10 029:764 JLINK_IsHalted()  returns FALSE (0001ms, 1474ms total)
T4F10 029:867 JLINK_IsHalted()  returns FALSE (0000ms, 1473ms total)
T4F10 029:968 JLINK_IsHalted()  returns FALSE (0000ms, 1473ms total)
T4F10 030:070 JLINK_IsHalted()  returns FALSE (0001ms, 1474ms total)
T4F10 030:172 JLINK_IsHalted()  returns FALSE (0001ms, 1474ms total)
T4F10 030:273 JLINK_ReadMemU32(0xE0001004, 0x0001 Items, ...) - Data: 0B 6E 1C 06  returns 0x01 (0000ms, 1473ms total)
T4F10 030:278 JLINK_IsHalted()  returns FALSE (0001ms, 1474ms total)
T4C44 030:324 JLINK_SetResetType(JLINKARM_CM3_RESET_TYPE_NORMAL)  returns JLINKARM_CM3_RESET_TYPE_NORMAL (0000ms, 1473ms total)
T4C44 030:324 JLINK_ResetNoHalt() >0x10B TIF>Found SW-DP with ID 0x2BA01477 >0x0D TIF> >0x28 TIF> >0x0D TIF> >0x28 TIF> >0x0D TIF> >0x28 TIF> >0x0D TIF> >0x28 TIF> >0x0D TIF> >0x21 TIF> >0x0D TIF> >0x28 TIF> >0x0D TIF> >0x28 TIF> >0x0D TIF> >0x28 TIF> >0x0D TIF> >0x21 TIF> >0x0D TIF> >0x21 TIF> >0x0D TIF> >0x28 TIF> >0x0D TIF> >0x21 TIF> >0x0D TIF> >0x21 TIF> >0x0D TIF> >0x28 TIF> >0x0D TIF> >0x21 TIF> >0x0D TIF> >0x21 TIF> >0x0D TIF> >0x28 TIF> >0x0D TIF> >0x21 TIF> >0x0D TIF> >0x21 TIF> >0x0D TIF>
 >0x28 TIF> >0x0D TIF> >0x21 TIF> >0x0D TIF> >0x21 TIF> >0x0D TIF> >0x28 TIF> >0x0D TIF> >0x21 TIF> >0x0D TIF> >0x21 TIF> >0x10B TIF>Found SW-DP with ID 0x2BA01477 >0x0D TIF> >0x28 TIF> >0x0D TIF> >0x28 TIF> >0x0D TIF> >0x28 TIF> >0x0D TIF> >0x28 TIF> >0x0D TIF> >0x21 TIF> >0x0D TIF> >0x28 TIF>AP map detection skipped. Manually configured AP map found.AP[0]: AHB-AP (IDR: Not set) >0x42 TIF> >0x28 TIF> >0x0D TIF> >0x28 TIF> >0x0D TIF> >0x21 TIF> >0x0D TIF> >0x21 TIF> >0x42 TIF> >0x28 TIF> >0x0D TIF>
 >0x28 TIF> >0x0D TIF> >0x28 TIF> >0x0D TIF> >0x21 TIF> >0x0D TIF> >0x21 TIF>AP[0]: Core foundAP[0]: AHB-AP ROM base: 0xE00FF000 >0x0D TIF> >0x28 TIF> >0x0D TIF> >0x28 TIF> >0x0D TIF> >0x28 TIF> >0x0D TIF> >0x21 TIF> >0x0D TIF> >0x21 TIF>CPUID register: 0x410FC241. Implementer code: 0x41 (ARM)Found Cortex-M4 r0p1, Little endian. -- Max. mem block: 0x00010D60 -- CPU_ReadMem(4 bytes @ 0xE000EDF0) -- CPU_ReadMem(4 bytes @ 0xE0002000)FPUnit: 6 code (BP) slots and 2 literal slots
 -- CPU_ReadMem(4 bytes @ 0xE000EDFC) -- CPU_ReadMem(4 bytes @ 0xE0001000) -- CPU_WriteMem(4 bytes @ 0xE0001000) -- CPU_ReadMem(4 bytes @ 0xE000ED88) -- CPU_WriteMem(4 bytes @ 0xE000ED88) -- CPU_ReadMem(4 bytes @ 0xE000ED88) -- CPU_WriteMem(4 bytes @ 0xE000ED88)CoreSight components:ROMTbl[0] @ E00FF000 -- CPU_ReadMem(16 bytes @ 0xE00FF000) -- CPU_ReadMem(16 bytes @ 0xE000EFF0) -- CPU_ReadMem(16 bytes @ 0xE000EFE0)ROMTbl[0][0]: E000E000, CID: B105E00D, PID: 000BB00C SCS-M7
 -- CPU_ReadMem(16 bytes @ 0xE0001FF0) -- CPU_ReadMem(16 bytes @ 0xE0001FE0)ROMTbl[0][1]: E0001000, CID: B105E00D, PID: 003BB002 DWT -- CPU_ReadMem(16 bytes @ 0xE0002FF0) -- CPU_ReadMem(16 bytes @ 0xE0002FE0)ROMTbl[0][2]: E0002000, CID: B105E00D, PID: 002BB003 FPB -- CPU_ReadMem(16 bytes @ 0xE0000FF0) -- CPU_ReadMem(16 bytes @ 0xE0000FE0)ROMTbl[0][3]: E0000000, CID: B105E00D, PID: 003BB001 ITM -- CPU_ReadMem(16 bytes @ 0xE00FF010) -- CPU_ReadMem(16 bytes @ 0xE0040FF0)
 -- CPU_ReadMem(16 bytes @ 0xE0040FE0)ROMTbl[0][4]: E0040000, CID: B105900D, PID: 000BB9A1 TPIU -- CPU_ReadMem(16 bytes @ 0xE0041FF0) -- CPU_ReadMem(16 bytes @ 0xE0041FE0)ROMTbl[0][5]: E0041000, CID: B105900D, PID: 000BB925 ETM
                JLINK_Reset() -- CPU is running -- CPU_WriteMem(4 bytes @ 0xE000EDF0) -- CPU is running -- CPU_WriteMem(4 bytes @ 0xE000EDFC)Reset: Halt core after reset via DEMCR.VC_CORERESET. >0x35 TIF>Reset: Reset device via AIRCR.SYSRESETREQ. -- CPU is running -- CPU_WriteMem(4 bytes @ 0xE000ED0C) >0x0D TIF> >0x28 TIF> -- CPU_ReadMem(4 bytes @ 0xE000EDF0) -- CPU_ReadMem(4 bytes @ 0xE000EDF0) -- CPU is running -- CPU_WriteMem(4 bytes @ 0xE000EDF0) -- CPU is running
 -- CPU_WriteMem(4 bytes @ 0xE000EDFC) -- CPU_ReadMem(4 bytes @ 0xE000EDF0) -- CPU_WriteMem(4 bytes @ 0xE0002000) -- CPU_ReadMem(4 bytes @ 0xE000EDFC) -- CPU_ReadMem(4 bytes @ 0xE0001000) (0072ms, 0072ms total)
                JLINK_Go() -- CPU_ReadMem(4 bytes @ 0xE0001000) -- CPU_WriteMem(4 bytes @ 0xE0002008) -- CPU_WriteMem(4 bytes @ 0xE000200C) -- CPU_WriteMem(4 bytes @ 0xE0002010) -- CPU_WriteMem(4 bytes @ 0xE0002014) -- CPU_WriteMem(4 bytes @ 0xE0002018) -- CPU_WriteMem(4 bytes @ 0xE000201C) -- CPU_WriteMem(4 bytes @ 0xE0001004) (0005ms, 0077ms total)
               (0269ms, 1742ms total)
T4F10 030:595 JLINK_IsHalted()  returns FALSE (0000ms, 1742ms total)
T4F10 030:696 JLINK_IsHalted()  returns FALSE (0001ms, 1743ms total)
T4F10 030:798 JLINK_ReadMemU32(0xE0001004, 0x0001 Items, ...) -- CPU_ReadMem(4 bytes @ 0xE0001004) - Data: C2 B8 05 02  returns 0x01 (0001ms, 1743ms total)
T4F10 030:803 JLINK_IsHalted()  returns FALSE (0001ms, 1744ms total)
T4F10 030:905 JLINK_IsHalted()  returns FALSE (0001ms, 1744ms total)
T4F10 031:006 JLINK_IsHalted()  returns FALSE (0001ms, 1744ms total)
T4F10 031:108 JLINK_IsHalted()  returns FALSE (0000ms, 1743ms total)
T4F10 031:209 JLINK_IsHalted()  returns FALSE (0001ms, 1744ms total)
T4F10 031:311 JLINK_Halt()  returns 0x00 (0003ms, 1746ms total)
T4F10 031:314 JLINK_IsHalted()  returns TRUE (0000ms, 1746ms total)
T4F10 031:314 JLINK_IsHalted()  returns TRUE (0001ms, 1747ms total)
T4F10 031:315 JLINK_IsHalted()  returns TRUE (0000ms, 1746ms total)
T4F10 031:315 JLINK_ReadReg(R15 (PC))  returns 0x08001DFE (0000ms, 1746ms total)
T4F10 031:315 JLINK_ReadReg(XPSR)  returns 0x0100002C (0000ms, 1746ms total)
T4F10 031:315 JLINK_ReadMemU32(0xE000ED30, 0x0001 Items, ...) -- CPU_ReadMem(4 bytes @ 0xE000ED30) - Data: 01 00 00 00  returns 0x01 (0001ms, 1747ms total)
T4F10 031:316 JLINK_ReadMemU32(0xE0001028, 0x0001 Items, ...) -- CPU_ReadMem(4 bytes @ 0xE0001028) - Data: 00 00 00 00  returns 0x01 (0000ms, 1747ms total)
T4F10 031:316 JLINK_ReadMemU32(0xE0001038, 0x0001 Items, ...) -- CPU_ReadMem(4 bytes @ 0xE0001038) - Data: 00 02 00 00  returns 0x01 (0001ms, 1748ms total)
T4F10 031:317 JLINK_ReadMemU32(0xE0001048, 0x0001 Items, ...) -- CPU_ReadMem(4 bytes @ 0xE0001048) - Data: 00 00 00 00  returns 0x01 (0001ms, 1749ms total)
T4F10 031:318 JLINK_ReadMemU32(0xE0001058, 0x0001 Items, ...) -- CPU_ReadMem(4 bytes @ 0xE0001058) - Data: 00 00 00 00  returns 0x01 (0001ms, 1750ms total)
T4F10 031:319 JLINK_ReadReg(R0)  returns 0x0000001F (0000ms, 1750ms total)
T4F10 031:319 JLINK_ReadReg(R1)  returns 0x4000043C (0000ms, 1750ms total)
T4F10 031:319 JLINK_ReadReg(R2)  returns 0x00000003 (0000ms, 1750ms total)
T4F10 031:319 JLINK_ReadReg(R3)  returns 0x0000001A (0000ms, 1750ms total)
T4F10 031:319 JLINK_ReadReg(R4)  returns 0x20001820 (0000ms, 1750ms total)
T4F10 031:319 JLINK_ReadReg(R5)  returns 0x00000000 (0000ms, 1750ms total)
T4F10 031:319 JLINK_ReadReg(R6)  returns 0x00000000 (0000ms, 1750ms total)
T4F10 031:319 JLINK_ReadReg(R7)  returns 0x00000000 (0000ms, 1750ms total)
T4F10 031:319 JLINK_ReadReg(R8)  returns 0x00000000 (0000ms, 1750ms total)
T4F10 031:319 JLINK_ReadReg(R9)  returns 0x00000000 (0000ms, 1750ms total)
T4F10 031:319 JLINK_ReadReg(R10)  returns 0x00000000 (0000ms, 1750ms total)
T4F10 031:320 JLINK_ReadReg(R11)  returns 0x00000000 (0000ms, 1750ms total)
T4F10 031:320 JLINK_ReadReg(R12)  returns 0x00000000 (0000ms, 1750ms total)
T4F10 031:320 JLINK_ReadReg(R13 (SP))  returns 0x20005E58 (0000ms, 1750ms total)
T4F10 031:320 JLINK_ReadReg(R14)  returns 0x08002A31 (0000ms, 1750ms total)
T4F10 031:320 JLINK_ReadReg(R15 (PC))  returns 0x08001DFE (0000ms, 1750ms total)
T4F10 031:320 JLINK_ReadReg(XPSR)  returns 0x0100002C (0000ms, 1750ms total)
T4F10 031:320 JLINK_ReadReg(MSP)  returns 0x20005E58 (0000ms, 1750ms total)
T4F10 031:320 JLINK_ReadReg(PSP)  returns 0x20001B88 (0000ms, 1750ms total)
T4F10 031:320 JLINK_ReadReg(CFBP)  returns 0x00000000 (0000ms, 1750ms total)
T4F10 031:320 JLINK_ReadReg(FPSCR)  returns 0x03000000 (0004ms, 1754ms total)
T4F10 031:324 JLINK_ReadReg(FPS0)  returns 0xD1BA43B7 (0000ms, 1754ms total)
T4F10 031:324 JLINK_ReadReg(FPS1)  returns 0x3A83126F (0000ms, 1754ms total)
T4F10 031:324 JLINK_ReadReg(FPS2)  returns 0x00000000 (0000ms, 1754ms total)
T4F10 031:324 JLINK_ReadReg(FPS3)  returns 0x447A0000 (0000ms, 1754ms total)
T4F10 031:324 JLINK_ReadReg(FPS4)  returns 0x469C4000 (0000ms, 1754ms total)
T4F10 031:324 JLINK_ReadReg(FPS5)  returns 0x00000000 (0000ms, 1754ms total)
T4F10 031:324 JLINK_ReadReg(FPS6)  returns 0x00000000 (0000ms, 1754ms total)
T4F10 031:324 JLINK_ReadReg(FPS7)  returns 0x00000000 (0000ms, 1754ms total)
T4F10 031:324 JLINK_ReadReg(FPS8)  returns 0x00000000 (0001ms, 1755ms total)
T4F10 031:325 JLINK_ReadReg(FPS9)  returns 0x00000000 (0000ms, 1755ms total)
T4F10 031:325 JLINK_ReadReg(FPS10)  returns 0x00000000 (0000ms, 1755ms total)
T4F10 031:325 JLINK_ReadReg(FPS11)  returns 0x00000000 (0000ms, 1755ms total)
T4F10 031:325 JLINK_ReadReg(FPS12)  returns 0x00000000 (0000ms, 1755ms total)
T4F10 031:325 JLINK_ReadReg(FPS13)  returns 0x00000000 (0000ms, 1755ms total)
T4F10 031:325 JLINK_ReadReg(FPS14)  returns 0x00000000 (0000ms, 1755ms total)
T4F10 031:325 JLINK_ReadReg(FPS15)  returns 0x00000000 (0000ms, 1755ms total)
T4F10 031:325 JLINK_ReadReg(FPS16)  returns 0x00000000 (0000ms, 1755ms total)
T4F10 031:325 JLINK_ReadReg(FPS17)  returns 0x00000000 (0000ms, 1755ms total)
T4F10 031:325 JLINK_ReadReg(FPS18)  returns 0x00000000 (0000ms, 1755ms total)
T4F10 031:325 JLINK_ReadReg(FPS19)  returns 0x00000000 (0000ms, 1755ms total)
T4F10 031:325 JLINK_ReadReg(FPS20)  returns 0x00000000 (0000ms, 1755ms total)
T4F10 031:325 JLINK_ReadReg(FPS21)  returns 0x00000000 (0000ms, 1755ms total)
T4F10 031:325 JLINK_ReadReg(FPS22)  returns 0x00000000 (0000ms, 1755ms total)
T4F10 031:325 JLINK_ReadReg(FPS23)  returns 0x00000000 (0000ms, 1755ms total)
T4F10 031:325 JLINK_ReadReg(FPS24)  returns 0x00000000 (0000ms, 1755ms total)
T4F10 031:325 JLINK_ReadReg(FPS25)  returns 0x00000000 (0000ms, 1755ms total)
T4F10 031:325 JLINK_ReadReg(FPS26)  returns 0x00000000 (0000ms, 1755ms total)
T4F10 031:325 JLINK_ReadReg(FPS27)  returns 0x00000000 (0000ms, 1755ms total)
T4F10 031:325 JLINK_ReadReg(FPS28)  returns 0x00000000 (0000ms, 1755ms total)
T4F10 031:325 JLINK_ReadReg(FPS29)  returns 0x00000000 (0000ms, 1755ms total)
T4F10 031:325 JLINK_ReadReg(FPS30)  returns 0x00000000 (0000ms, 1755ms total)
T4F10 031:325 JLINK_ReadReg(FPS31)  returns 0x00000000 (0000ms, 1755ms total)
T4C44 031:326 JLINK_ReadMemEx(0x20005E5C, 0x0004 Bytes, ..., Flags = 0x02000000) -- CPU_ReadMem(64 bytes @ 0x20005E40) -- Updating C cache (64 bytes @ 0x20005E40) -- Read from C cache (4 bytes @ 0x20005E5C) - Data: 31 2A 00 08  returns 0x04 (0001ms, 1756ms total)
T4C44 031:328 JLINK_ReadMemEx(0x20005E58, 0x0004 Bytes, ..., Flags = 0x02000000) -- Read from C cache (4 bytes @ 0x20005E58) - Data: 00 00 00 00  returns 0x04 (0000ms, 1757ms total)
T4C44 031:328 JLINK_ReadMemEx(0x20005E64, 0x0004 Bytes, ..., Flags = 0x02000000) -- Read from C cache (4 bytes @ 0x20005E64) - Data: FD FF FF FF  returns 0x04 (0000ms, 1757ms total)
T4C44 031:328 JLINK_ReadMemEx(0x20001BA0, 0x0004 Bytes, ..., Flags = 0x02000000) -- CPU_ReadMem(64 bytes @ 0x20001B80) -- Updating C cache (64 bytes @ 0x20001B80) -- Read from C cache (4 bytes @ 0x20001BA0) - Data: 5C 2E 00 08  returns 0x04 (0001ms, 1758ms total)
T4C44 031:329 JLINK_ReadMemEx(0x20001BA4, 0x0004 Bytes, ..., Flags = 0x02000000) -- Read from C cache (4 bytes @ 0x20001BA4) - Data: 00 00 00 21  returns 0x04 (0000ms, 1758ms total)
T4C44 031:329 JLINK_ReadMemEx(0x20001B9C, 0x0004 Bytes, ..., Flags = 0x02000000) -- Read from C cache (4 bytes @ 0x20001B9C) - Data: 63 31 00 08  returns 0x04 (0000ms, 1758ms total)
T4C44 031:329 JLINK_ReadMemEx(0xE000ED28, 0x0004 Bytes, ..., Flags = 0x02000000) -- CPU_ReadMem(4 bytes @ 0xE000ED28) - Data: 00 00 00 00  returns 0x04 (0002ms, 1760ms total)
T4C44 031:331 JLINK_ReadMemEx(0x20001BAC, 0x0004 Bytes, ..., Flags = 0x02000000) -- Read from C cache (4 bytes @ 0x20001BAC) - Data: 63 31 00 08  returns 0x04 (0000ms, 1760ms total)
T4C44 031:332 JLINK_ReadMemEx(0x20001BA8, 0x0004 Bytes, ..., Flags = 0x02000000) -- Read from C cache (4 bytes @ 0x20001BA8) - Data: 00 00 00 00  returns 0x04 (0000ms, 1760ms total)
T4C44 031:335 JLINK_ReadMemEx(0x08001DFE, 0x0002 Bytes, ..., Flags = 0x02000000) -- CPU_ReadMem(64 bytes @ 0x08001DC0) -- Updating C cache (64 bytes @ 0x08001DC0) -- Read from C cache (2 bytes @ 0x08001DFE) - Data: C0 F3  returns 0x02 (0001ms, 1761ms total)
T4C44 031:336 JLINK_ReadMemEx(0x08001E00, 0x003C Bytes, ..., Flags = 0x02000000) -- CPU_ReadMem(64 bytes @ 0x08001E00) -- Updating C cache (64 bytes @ 0x08001E00) -- Read from C cache (60 bytes @ 0x08001E00) - Data: C0 00 D8 B1 20 68 C0 68 C0 F3 C0 00 B0 B1 6F F0 ...  returns 0x3C (0001ms, 1762ms total)
T4F10 032:175 JLINK_ReadMemEx(0x08001DFE, 0x0002 Bytes, ..., Flags = 0x02000000) -- Read from C cache (2 bytes @ 0x08001DFE) - Data: C0 F3  returns 0x02 (0000ms, 1762ms total)
T4F10 032:175 JLINK_Go() -- CPU_ReadMem(4 bytes @ 0xE0001000) (0003ms, 1765ms total)
T4F10 032:279 JLINK_IsHalted()  returns FALSE (0000ms, 1765ms total)
T4F10 032:380 JLINK_IsHalted()  returns FALSE (0001ms, 1766ms total)
T4F10 032:481 JLINK_IsHalted()  returns FALSE (0000ms, 1765ms total)
T4F10 032:583 JLINK_IsHalted()  returns FALSE (0001ms, 1766ms total)
T4F10 032:685 JLINK_IsHalted()  returns FALSE (0001ms, 1766ms total)
T4F10 032:787 JLINK_ReadMemU32(0xE0001004, 0x0001 Items, ...) -- CPU_ReadMem(4 bytes @ 0xE0001004) - Data: 0E 85 40 0D  returns 0x01 (0001ms, 1766ms total)
T4F10 032:792 JLINK_IsHalted()  returns FALSE (0001ms, 1767ms total)
T4F10 032:893 JLINK_IsHalted()  returns FALSE (0001ms, 1767ms total)
T4F10 032:995 JLINK_IsHalted()  returns FALSE (0001ms, 1767ms total)
T4F10 033:097 JLINK_IsHalted()  returns FALSE (0001ms, 1767ms total)
T4C44 033:179 JLINK_SetResetType(JLINKARM_CM3_RESET_TYPE_NORMAL)  returns JLINKARM_CM3_RESET_TYPE_NORMAL (0000ms, 1766ms total)
T4C44 033:179 JLINK_ResetNoHalt() >0x10B TIF>Found SW-DP with ID 0x2BA01477 >0x0D TIF> >0x28 TIF> >0x0D TIF> >0x28 TIF> >0x0D TIF> >0x28 TIF> >0x0D TIF> >0x28 TIF> >0x0D TIF> >0x21 TIF> >0x0D TIF> >0x28 TIF> >0x0D TIF> >0x28 TIF> >0x0D TIF> >0x28 TIF> >0x0D TIF> >0x21 TIF> >0x0D TIF> >0x21 TIF> >0x0D TIF> >0x28 TIF> >0x0D TIF> >0x21 TIF> >0x0D TIF> >0x21 TIF> >0x0D TIF> >0x28 TIF> >0x0D TIF> >0x21 TIF> >0x0D TIF> >0x21 TIF> >0x0D TIF> >0x28 TIF> >0x0D TIF> >0x21 TIF> >0x0D TIF> >0x21 TIF> >0x0D TIF>
 >0x28 TIF> >0x0D TIF> >0x21 TIF> >0x0D TIF> >0x21 TIF> >0x0D TIF> >0x28 TIF> >0x0D TIF> >0x21 TIF> >0x0D TIF> >0x21 TIF> >0x10B TIF>Found SW-DP with ID 0x2BA01477 >0x0D TIF> >0x28 TIF> >0x0D TIF> >0x28 TIF> >0x0D TIF> >0x28 TIF> >0x0D TIF> >0x28 TIF> >0x0D TIF> >0x21 TIF> >0x0D TIF> >0x28 TIF>AP map detection skipped. Manually configured AP map found.AP[0]: AHB-AP (IDR: Not set) >0x42 TIF> >0x28 TIF> >0x0D TIF> >0x28 TIF> >0x0D TIF> >0x21 TIF> >0x0D TIF> >0x21 TIF> >0x42 TIF> >0x28 TIF> >0x0D TIF>
 >0x28 TIF> >0x0D TIF> >0x28 TIF> >0x0D TIF> >0x21 TIF> >0x0D TIF> >0x21 TIF>AP[0]: Core foundAP[0]: AHB-AP ROM base: 0xE00FF000 >0x0D TIF> >0x28 TIF> >0x0D TIF> >0x28 TIF> >0x0D TIF> >0x28 TIF> >0x0D TIF> >0x21 TIF> >0x0D TIF> >0x21 TIF>CPUID register: 0x410FC241. Implementer code: 0x41 (ARM)Found Cortex-M4 r0p1, Little endian. -- Max. mem block: 0x00010D60 -- CPU_ReadMem(4 bytes @ 0xE000EDF0) -- CPU_ReadMem(4 bytes @ 0xE0002000)FPUnit: 6 code (BP) slots and 2 literal slots
 -- CPU_ReadMem(4 bytes @ 0xE000EDFC) -- CPU_ReadMem(4 bytes @ 0xE0001000) -- CPU_WriteMem(4 bytes @ 0xE0001000) -- CPU_ReadMem(4 bytes @ 0xE000ED88) -- CPU_WriteMem(4 bytes @ 0xE000ED88) -- CPU_ReadMem(4 bytes @ 0xE000ED88) -- CPU_WriteMem(4 bytes @ 0xE000ED88)CoreSight components:ROMTbl[0] @ E00FF000 -- CPU_ReadMem(16 bytes @ 0xE00FF000) -- CPU_ReadMem(16 bytes @ 0xE000EFF0) -- CPU_ReadMem(16 bytes @ 0xE000EFE0)ROMTbl[0][0]: E000E000, CID: B105E00D, PID: 000BB00C SCS-M7
 -- CPU_ReadMem(16 bytes @ 0xE0001FF0) -- CPU_ReadMem(16 bytes @ 0xE0001FE0)ROMTbl[0][1]: E0001000, CID: B105E00D, PID: 003BB002 DWT -- CPU_ReadMem(16 bytes @ 0xE0002FF0) -- CPU_ReadMem(16 bytes @ 0xE0002FE0)ROMTbl[0][2]: E0002000, CID: B105E00D, PID: 002BB003 FPB -- CPU_ReadMem(16 bytes @ 0xE0000FF0) -- CPU_ReadMem(16 bytes @ 0xE0000FE0)ROMTbl[0][3]: E0000000, CID: B105E00D, PID: 003BB001 ITM -- CPU_ReadMem(16 bytes @ 0xE00FF010) -- CPU_ReadMem(16 bytes @ 0xE0040FF0)
 -- CPU_ReadMem(16 bytes @ 0xE0040FE0)ROMTbl[0][4]: E0040000, CID: B105900D, PID: 000BB9A1 TPIU -- CPU_ReadMem(16 bytes @ 0xE0041FF0) -- CPU_ReadMem(16 bytes @ 0xE0041FE0)ROMTbl[0][5]: E0041000, CID: B105900D, PID: 000BB925 ETM
                JLINK_Reset() -- CPU is running -- CPU_WriteMem(4 bytes @ 0xE000EDF0) -- CPU is running -- CPU_WriteMem(4 bytes @ 0xE000EDFC)Reset: Halt core after reset via DEMCR.VC_CORERESET. >0x35 TIF>Reset: Reset device via AIRCR.SYSRESETREQ. -- CPU is running -- CPU_WriteMem(4 bytes @ 0xE000ED0C) >0x0D TIF> >0x28 TIF> -- CPU_ReadMem(4 bytes @ 0xE000EDF0) -- CPU_ReadMem(4 bytes @ 0xE000EDF0) -- CPU is running -- CPU_WriteMem(4 bytes @ 0xE000EDF0) -- CPU is running
 -- CPU_WriteMem(4 bytes @ 0xE000EDFC) -- CPU_ReadMem(4 bytes @ 0xE000EDF0) -- CPU_WriteMem(4 bytes @ 0xE0002000) -- CPU_ReadMem(4 bytes @ 0xE000EDFC) -- CPU_ReadMem(4 bytes @ 0xE0001000) (0075ms, 0075ms total)
                JLINK_Go() -- CPU_ReadMem(4 bytes @ 0xE0001000) -- CPU_WriteMem(4 bytes @ 0xE0002008) -- CPU_WriteMem(4 bytes @ 0xE000200C) -- CPU_WriteMem(4 bytes @ 0xE0002010) -- CPU_WriteMem(4 bytes @ 0xE0002014) -- CPU_WriteMem(4 bytes @ 0xE0002018) -- CPU_WriteMem(4 bytes @ 0xE000201C) -- CPU_WriteMem(4 bytes @ 0xE0001004) (0004ms, 0079ms total)
               (0268ms, 2034ms total)
T4F10 033:447 JLINK_ReadMemU32(0xE0001004, 0x0001 Items, ...) -- CPU_ReadMem(4 bytes @ 0xE0001004) - Data: A4 44 00 00  returns 0x01 (0001ms, 2035ms total)
T4F10 033:452 JLINK_IsHalted()  returns FALSE (0001ms, 2036ms total)
T4F10 033:554 JLINK_IsHalted()  returns FALSE (0001ms, 2036ms total)
T4F10 033:655 JLINK_IsHalted()  returns FALSE (0001ms, 2036ms total)
T4F10 033:757 JLINK_IsHalted()  returns FALSE (0001ms, 2036ms total)
T4F10 033:859 JLINK_IsHalted()  returns FALSE (0001ms, 2036ms total)
T4F10 033:961 JLINK_Halt()  returns 0x00 (0003ms, 2038ms total)
T4F10 033:964 JLINK_IsHalted()  returns TRUE (0000ms, 2038ms total)
T4F10 033:964 JLINK_IsHalted()  returns TRUE (0000ms, 2038ms total)
T4F10 033:964 JLINK_IsHalted()  returns TRUE (0000ms, 2038ms total)
T4F10 033:964 JLINK_ReadReg(R15 (PC))  returns 0x08001EE8 (0000ms, 2038ms total)
T4F10 033:964 JLINK_ReadReg(XPSR)  returns 0x0100002D (0000ms, 2038ms total)
T4F10 033:964 JLINK_ReadMemU32(0xE000ED30, 0x0001 Items, ...) -- CPU_ReadMem(4 bytes @ 0xE000ED30) - Data: 01 00 00 00  returns 0x01 (0001ms, 2039ms total)
T4F10 033:965 JLINK_ReadMemU32(0xE0001028, 0x0001 Items, ...) -- CPU_ReadMem(4 bytes @ 0xE0001028) - Data: 00 00 00 00  returns 0x01 (0001ms, 2040ms total)
T4F10 033:966 JLINK_ReadMemU32(0xE0001038, 0x0001 Items, ...) -- CPU_ReadMem(4 bytes @ 0xE0001038) - Data: 00 02 00 00  returns 0x01 (0001ms, 2041ms total)
T4F10 033:967 JLINK_ReadMemU32(0xE0001048, 0x0001 Items, ...) -- CPU_ReadMem(4 bytes @ 0xE0001048) - Data: 00 00 00 00  returns 0x01 (0001ms, 2042ms total)
T4F10 033:968 JLINK_ReadMemU32(0xE0001058, 0x0001 Items, ...) -- CPU_ReadMem(4 bytes @ 0xE0001058) - Data: 00 00 00 00  returns 0x01 (0001ms, 2043ms total)
T4F10 033:969 JLINK_ReadReg(R0)  returns 0x0000001E (0001ms, 2044ms total)
T4F10 033:970 JLINK_ReadReg(R1)  returns 0x4000043C (0000ms, 2044ms total)
T4F10 033:970 JLINK_ReadReg(R2)  returns 0x00000003 (0000ms, 2044ms total)
T4F10 033:970 JLINK_ReadReg(R3)  returns 0x00000018 (0000ms, 2044ms total)
T4F10 033:970 JLINK_ReadReg(R4)  returns 0x2000185C (0000ms, 2044ms total)
T4F10 033:970 JLINK_ReadReg(R5)  returns 0x00000000 (0000ms, 2044ms total)
T4F10 033:970 JLINK_ReadReg(R6)  returns 0x00000000 (0000ms, 2044ms total)
T4F10 033:970 JLINK_ReadReg(R7)  returns 0x00000000 (0000ms, 2044ms total)
T4F10 033:970 JLINK_ReadReg(R8)  returns 0x00000000 (0000ms, 2044ms total)
T4F10 033:970 JLINK_ReadReg(R9)  returns 0x00000000 (0000ms, 2044ms total)
T4F10 033:970 JLINK_ReadReg(R10)  returns 0x00000000 (0000ms, 2044ms total)
T4F10 033:970 JLINK_ReadReg(R11)  returns 0x00000000 (0000ms, 2044ms total)
T4F10 033:970 JLINK_ReadReg(R12)  returns 0x00000000 (0000ms, 2044ms total)
T4F10 033:970 JLINK_ReadReg(R13 (SP))  returns 0x20005E58 (0000ms, 2044ms total)
T4F10 033:970 JLINK_ReadReg(R14)  returns 0x08001EA1 (0000ms, 2044ms total)
T4F10 033:970 JLINK_ReadReg(R15 (PC))  returns 0x08001EE8 (0000ms, 2044ms total)
T4F10 033:970 JLINK_ReadReg(XPSR)  returns 0x0100002D (0000ms, 2044ms total)
T4F10 033:970 JLINK_ReadReg(MSP)  returns 0x20005E58 (0000ms, 2044ms total)
T4F10 033:970 JLINK_ReadReg(PSP)  returns 0x20001B88 (0000ms, 2044ms total)
T4F10 033:970 JLINK_ReadReg(CFBP)  returns 0x00000000 (0000ms, 2044ms total)
T4F10 033:970 JLINK_ReadReg(FPSCR)  returns 0x03000000 (0006ms, 2050ms total)
T4F10 033:976 JLINK_ReadReg(FPS0)  returns 0xD1BA43B7 (0000ms, 2050ms total)
T4F10 033:976 JLINK_ReadReg(FPS1)  returns 0x3A83126F (0000ms, 2050ms total)
T4F10 033:976 JLINK_ReadReg(FPS2)  returns 0x00000000 (0000ms, 2050ms total)
T4F10 033:976 JLINK_ReadReg(FPS3)  returns 0x447A0000 (0000ms, 2050ms total)
T4F10 033:976 JLINK_ReadReg(FPS4)  returns 0x469C4000 (0000ms, 2050ms total)
T4F10 033:976 JLINK_ReadReg(FPS5)  returns 0x00000000 (0000ms, 2050ms total)
T4F10 033:976 JLINK_ReadReg(FPS6)  returns 0x00000000 (0000ms, 2050ms total)
T4F10 033:976 JLINK_ReadReg(FPS7)  returns 0x00000000 (0000ms, 2050ms total)
T4F10 033:976 JLINK_ReadReg(FPS8)  returns 0x00000000 (0000ms, 2050ms total)
T4F10 033:976 JLINK_ReadReg(FPS9)  returns 0x00000000 (0000ms, 2050ms total)
T4F10 033:976 JLINK_ReadReg(FPS10)  returns 0x00000000 (0000ms, 2050ms total)
T4F10 033:976 JLINK_ReadReg(FPS11)  returns 0x00000000 (0000ms, 2050ms total)
T4F10 033:976 JLINK_ReadReg(FPS12)  returns 0x00000000 (0000ms, 2050ms total)
T4F10 033:976 JLINK_ReadReg(FPS13)  returns 0x00000000 (0000ms, 2050ms total)
T4F10 033:976 JLINK_ReadReg(FPS14)  returns 0x00000000 (0000ms, 2050ms total)
T4F10 033:976 JLINK_ReadReg(FPS15)  returns 0x00000000 (0000ms, 2050ms total)
T4F10 033:976 JLINK_ReadReg(FPS16)  returns 0x00000000 (0000ms, 2050ms total)
T4F10 033:976 JLINK_ReadReg(FPS17)  returns 0x00000000 (0000ms, 2050ms total)
T4F10 033:976 JLINK_ReadReg(FPS18)  returns 0x00000000 (0000ms, 2050ms total)
T4F10 033:976 JLINK_ReadReg(FPS19)  returns 0x00000000 (0000ms, 2050ms total)
T4F10 033:976 JLINK_ReadReg(FPS20)  returns 0x00000000 (0000ms, 2050ms total)
T4F10 033:976 JLINK_ReadReg(FPS21)  returns 0x00000000 (0000ms, 2050ms total)
T4F10 033:976 JLINK_ReadReg(FPS22)  returns 0x00000000 (0000ms, 2050ms total)
T4F10 033:976 JLINK_ReadReg(FPS23)  returns 0x00000000 (0000ms, 2050ms total)
T4F10 033:976 JLINK_ReadReg(FPS24)  returns 0x00000000 (0000ms, 2050ms total)
T4F10 033:976 JLINK_ReadReg(FPS25)  returns 0x00000000 (0000ms, 2050ms total)
T4F10 033:976 JLINK_ReadReg(FPS26)  returns 0x00000000 (0000ms, 2050ms total)
T4F10 033:976 JLINK_ReadReg(FPS27)  returns 0x00000000 (0000ms, 2050ms total)
T4F10 033:976 JLINK_ReadReg(FPS28)  returns 0x00000000 (0000ms, 2050ms total)
T4F10 033:976 JLINK_ReadReg(FPS29)  returns 0x00000000 (0000ms, 2050ms total)
T4F10 033:976 JLINK_ReadReg(FPS30)  returns 0x00000000 (0000ms, 2050ms total)
T4F10 033:976 JLINK_ReadReg(FPS31)  returns 0x00000000 (0000ms, 2050ms total)
T4C44 033:979 JLINK_ReadMemEx(0x20005E5C, 0x0004 Bytes, ..., Flags = 0x02000000) -- CPU_ReadMem(64 bytes @ 0x20005E40) -- Updating C cache (64 bytes @ 0x20005E40) -- Read from C cache (4 bytes @ 0x20005E5C) - Data: 41 2A 00 08  returns 0x04 (0002ms, 2052ms total)
T4C44 033:981 JLINK_ReadMemEx(0x20005E58, 0x0004 Bytes, ..., Flags = 0x02000000) -- Read from C cache (4 bytes @ 0x20005E58) - Data: 00 00 00 00  returns 0x04 (0000ms, 2052ms total)
T4C44 033:981 JLINK_ReadMemEx(0x20005E64, 0x0004 Bytes, ..., Flags = 0x02000000) -- Read from C cache (4 bytes @ 0x20005E64) - Data: FD FF FF FF  returns 0x04 (0000ms, 2052ms total)
T4C44 033:981 JLINK_ReadMemEx(0x20001BA0, 0x0004 Bytes, ..., Flags = 0x02000000) -- CPU_ReadMem(64 bytes @ 0x20001B80) -- Updating C cache (64 bytes @ 0x20001B80) -- Read from C cache (4 bytes @ 0x20001BA0) - Data: 5C 2E 00 08  returns 0x04 (0001ms, 2053ms total)
T4C44 033:982 JLINK_ReadMemEx(0x20001BA4, 0x0004 Bytes, ..., Flags = 0x02000000) -- Read from C cache (4 bytes @ 0x20001BA4) - Data: 00 00 00 21  returns 0x04 (0000ms, 2053ms total)
T4C44 033:982 JLINK_ReadMemEx(0x20001B9C, 0x0004 Bytes, ..., Flags = 0x02000000) -- Read from C cache (4 bytes @ 0x20001B9C) - Data: 63 31 00 08  returns 0x04 (0000ms, 2053ms total)
T4C44 033:982 JLINK_ReadMemEx(0xE000ED28, 0x0004 Bytes, ..., Flags = 0x02000000) -- CPU_ReadMem(4 bytes @ 0xE000ED28) - Data: 00 00 00 00  returns 0x04 (0001ms, 2054ms total)
T4C44 033:983 JLINK_ReadMemEx(0x20001BAC, 0x0004 Bytes, ..., Flags = 0x02000000) -- Read from C cache (4 bytes @ 0x20001BAC) - Data: 63 31 00 08  returns 0x04 (0000ms, 2054ms total)
T4C44 033:983 JLINK_ReadMemEx(0x20001BA8, 0x0004 Bytes, ..., Flags = 0x02000000) -- Read from C cache (4 bytes @ 0x20001BA8) - Data: 00 00 00 00  returns 0x04 (0000ms, 2054ms total)
T4C44 033:986 JLINK_ReadMemEx(0x08001EE8, 0x003C Bytes, ..., Flags = 0x02000000) -- CPU_ReadMem(128 bytes @ 0x08001EC0) -- Updating C cache (128 bytes @ 0x08001EC0) -- Read from C cache (60 bytes @ 0x08001EE8) - Data: C0 F3 40 10 58 B1 20 68 C0 68 C0 F3 40 10 30 B1 ...  returns 0x3C (0002ms, 2056ms total)
T4C44 034:448 JLINK_SetResetType(JLINKARM_CM3_RESET_TYPE_NORMAL)  returns JLINKARM_CM3_RESET_TYPE_NORMAL (0000ms, 2056ms total)
T4C44 034:448 JLINK_Reset() -- CPU_WriteMem(4 bytes @ 0xE000EDF0) -- CPU_WriteMem(4 bytes @ 0xE000EDFC)Reset: Halt core after reset via DEMCR.VC_CORERESET. >0x35 TIF>Reset: Reset device via AIRCR.SYSRESETREQ. -- CPU_WriteMem(4 bytes @ 0xE000ED0C) >0x0D TIF> >0x28 TIF> -- CPU_ReadMem(4 bytes @ 0xE000EDF0) -- CPU_ReadMem(4 bytes @ 0xE000EDF0) -- CPU_WriteMem(4 bytes @ 0xE000EDF0) -- CPU_WriteMem(4 bytes @ 0xE000EDFC) -- CPU_ReadMem(4 bytes @ 0xE000EDF0) -- CPU_WriteMem(4 bytes @ 0xE0002000)
 -- CPU_ReadMem(4 bytes @ 0xE000EDFC) -- CPU_ReadMem(4 bytes @ 0xE0001000) (0076ms, 2132ms total)
T4C44 034:524 JLINK_ReadReg(R15 (PC))  returns 0x08000330 (0001ms, 2133ms total)
T4C44 034:525 JLINK_ReadReg(XPSR)  returns 0x01000000 (0000ms, 2133ms total)
T4C44 034:525 JLINK_ReadMemEx(0x08000230, 0x003C Bytes, ..., Flags = 0x02000000) -- CPU_ReadMem(128 bytes @ 0x08000200) -- Updating C cache (128 bytes @ 0x08000200) -- Read from C cache (60 bytes @ 0x08000230) - Data: 10 3A 28 BF 78 C1 FB D8 52 07 28 BF 30 C1 48 BF ...  returns 0x3C (0002ms, 2135ms total)
T4C44 034:527 JLINK_ReadMemEx(0x0800026C, 0x003C Bytes, ..., Flags = 0x02000000) -- CPU_ReadMem(64 bytes @ 0x08000280) -- Updating C cache (64 bytes @ 0x08000280) -- Read from C cache (60 bytes @ 0x0800026C) - Data: 03 BC 00 F0 AB F9 00 00 2B 4B 19 68 08 68 B0 E8 ...  returns 0x3C (0001ms, 2136ms total)
T4C44 034:528 JLINK_ReadMemEx(0x080002A8, 0x003C Bytes, ..., Flags = 0x02000000) -- CPU_ReadMem(64 bytes @ 0x080002C0) -- Updating C cache (64 bytes @ 0x080002C0) -- Read from C cache (60 bytes @ 0x080002A8) - Data: 6F 8F 00 DF 00 BF 00 BF 08 ED 00 E0 DF F8 0C 00 ...  returns 0x3C (0001ms, 2137ms total)
T4C44 034:529 JLINK_ReadMemEx(0x080002E4, 0x003C Bytes, ..., Flags = 0x02000000) -- CPU_ReadMem(64 bytes @ 0x08000300) -- Updating C cache (64 bytes @ 0x08000300) -- Read from C cache (60 bytes @ 0x080002E4) - Data: 08 B4 4F F0 50 00 80 F3 11 88 BF F3 4F 8F BF F3 ...  returns 0x3C (0001ms, 2138ms total)
T4C44 034:530 JLINK_ReadMemEx(0x08000320, 0x003C Bytes, ..., Flags = 0x02000000) -- CPU_ReadMem(64 bytes @ 0x08000340) -- Updating C cache (64 bytes @ 0x08000340) -- Read from C cache (60 bytes @ 0x08000320) - Data: 00 BF 00 BF 44 00 00 20 EF F3 05 80 70 47 00 00 ...  returns 0x3C (0001ms, 2139ms total)
T4F10 060:068 JLINK_ReadMemEx(0x08000330, 0x0002 Bytes, ..., Flags = 0x02000000) -- Read from C cache (2 bytes @ 0x08000330) - Data: 09 48  returns 0x02 (0000ms, 2139ms total)
T4F10 060:068 JLINK_Go() -- CPU_ReadMem(4 bytes @ 0xE0001000) -- CPU_WriteMem(4 bytes @ 0xE0002008) -- CPU_WriteMem(4 bytes @ 0xE000200C) -- CPU_WriteMem(4 bytes @ 0xE0002010) -- CPU_WriteMem(4 bytes @ 0xE0002014) -- CPU_WriteMem(4 bytes @ 0xE0002018) -- CPU_WriteMem(4 bytes @ 0xE000201C) -- CPU_WriteMem(4 bytes @ 0xE0001004) (0005ms, 2144ms total)
T4F10 060:173 JLINK_IsHalted()  returns FALSE (0001ms, 2145ms total)
T4F10 060:275 JLINK_IsHalted()  returns FALSE (0001ms, 2145ms total)
T4F10 060:377 JLINK_IsHalted()  returns FALSE (0001ms, 2145ms total)
T4F10 060:479 JLINK_IsHalted()  returns FALSE (0000ms, 2144ms total)
